
**** 03/20/20 18:32:56 ******** PSpice 9.2.3 (Jan 2002) ******* ID# 1111111111 
 ** Profile: "SCHEMATIC1-sim_cuad1"  [ C:\Cadence\PSD_14.2\tools\cheby_cuad1-schematic1-sim_cuad1.sim ] 


 ****     CIRCUIT DESCRIPTION


******************************************************************************




** Creating circuit file "cheby_cuad1-schematic1-sim_cuad1.sim.cir" 
** WARNING: THIS AUTOMATICALLY GENERATED FILE MAY BE OVERWRITTEN BY SUBSEQUENT SIMULATIONS

*Libraries: 
* Local Libraries :
* From [PSPICE NETLIST] section of C:\Cadence\PSD_14.2\tools\PSpice\PSpice.ini file:
.lib "nom.lib" 

*Analysis directives: 
.AC DEC 100000 0.1 10Meg
.PROBE V(alias(*)) I(alias(*)) W(alias(*)) D(alias(*)) NOISE(alias(*)) 
.INC ".\cheby_cuad1-SCHEMATIC1.net" 



**** INCLUDING cheby_cuad1-SCHEMATIC1.net ****
* source CHEBY_CUAD1
V_V2         V+ 0 12Vdc
R_R3_1         N11356 N11372  {R3}  
V_V3         0 V- 12Vdc
X_U8         0 N11372 V+ V- VO1 AD817A/AD
C_C2         0 N11356  560n  
C_C5         N11372 VO1  1n  
R_R1_1         VI N11356  {R1}  
V_V1         VI 0 DC 0Vdc AC 1Vac 
R_R4         N11356 VO1  21k  
.PARAM  R1=18.55k R3=1.52k

**** RESUMING cheby_cuad1-schematic1-sim_cuad1.sim.cir ****
.END

**** 03/20/20 18:32:56 ******** PSpice 9.2.3 (Jan 2002) ******* ID# 1111111111 
 ** Profile: "SCHEMATIC1-sim_cuad1"  [ C:\Cadence\PSD_14.2\tools\cheby_cuad1-schematic1-sim_cuad1.sim ] 


 ****     Diode MODEL PARAMETERS


******************************************************************************




               X_U8.DX         
          IS   10.000000E-15 


**** 03/20/20 18:32:56 ******** PSpice 9.2.3 (Jan 2002) ******* ID# 1111111111 
 ** Profile: "SCHEMATIC1-sim_cuad1"  [ C:\Cadence\PSD_14.2\tools\cheby_cuad1-schematic1-sim_cuad1.sim ] 


 ****     BJT MODEL PARAMETERS


******************************************************************************




               X_U8.QN         
               NPN             
          IS  100.000000E-18 
          BF   75.758        
          NF    1            
          BR    1            
          NR    1            
          CN    2.42         
           D     .87         


**** 03/20/20 18:32:56 ******** PSpice 9.2.3 (Jan 2002) ******* ID# 1111111111 
 ** Profile: "SCHEMATIC1-sim_cuad1"  [ C:\Cadence\PSD_14.2\tools\cheby_cuad1-schematic1-sim_cuad1.sim ] 


 ****     SMALL SIGNAL BIAS SOLUTION       TEMPERATURE =   27.000 DEG C


******************************************************************************



 NODE   VOLTAGE     NODE   VOLTAGE     NODE   VOLTAGE     NODE   VOLTAGE


(   V+)   12.0000  (   V-)  -12.0000  (   VI)    0.0000  (  VO1)     .1645      

(N11356)     .0120 (N11372)     .0020 (X_U8.3)     .0020 (X_U8.4)   11.4650     

(X_U8.5)   11.4650 (X_U8.6)    -.7540 (X_U8.7)    -.7539 (X_U8.8)   -1.2705     

(X_U8.9)     .1646 (X_U8.10)    9.5700                   (X_U8.11)   -9.5700    

(X_U8.14) 979.2E-06                   (X_U8.15) 979.2E-12                       

(X_U8.31)     .1646                   (X_U8.32) 164.6E+03                       

(X_U8.33)     .1646                   (X_U8.34) 164.6E+03                       

(X_U8.35)     .1646                   (X_U8.36)     .1646                       

(X_U8.40)     .1646                   (X_U8.41)     .1246                       

(X_U8.42)     .2046                   (X_U8.45)     .1645                       

(X_U8.60)    -.5098                   (X_U8.61)    0.0000                       

(X_U8.62)    0.0000                   (X_U8.98)    0.0000                   




    VOLTAGE SOURCE CURRENTS
    NAME         CURRENT

    V_V2        -7.449E-03
    V_V3        -7.455E-03
    V_V1         6.475E-07
    X_U8.V1      9.415E-12
    X_U8.V2      9.745E-12
    X_U8.V7     -5.198E-13
    X_U8.V8      3.631E-06
    X_U8.V5     -4.781E-14
    X_U8.V6     -4.793E-14

    TOTAL POWER DISSIPATION   1.79E-01  WATTS



          JOB CONCLUDED

**** 03/20/20 18:32:56 ******** PSpice 9.2.3 (Jan 2002) ******* ID# 1111111111 
 ** Profile: "SCHEMATIC1-sim_cuad1"  [ C:\Cadence\PSD_14.2\tools\cheby_cuad1-schematic1-sim_cuad1.sim ] 


 ****     JOB STATISTICS SUMMARY


******************************************************************************



  Total job time (using Solver 1)   =       50.78
