
**** 03/20/20 18:16:05 ******** PSpice 9.2.3 (Jan 2002) ******* ID# 1111111111 
 ** Profile: "SCHEMATIC1-sim_cuad1_param"  [ C:\Cadence\PSD_14.2\tools\cheby_cuad1-schematic1-sim_cuad1_param.sim ] 


 ****     CIRCUIT DESCRIPTION


******************************************************************************




** Creating circuit file "cheby_cuad1-schematic1-sim_cuad1_param.sim.cir" 
** WARNING: THIS AUTOMATICALLY GENERATED FILE MAY BE OVERWRITTEN BY SUBSEQUENT SIMULATIONS

*Libraries: 
* Local Libraries :
* From [PSPICE NETLIST] section of C:\Cadence\PSD_14.2\tools\PSpice\PSpice.ini file:
.lib "nom.lib" 

*Analysis directives: 
.AC DEC 100 0.1 10Meg
.STEP LIN PARAM R3 1k 3k 0.1k 
.PROBE V(alias(*)) I(alias(*)) W(alias(*)) D(alias(*)) NOISE(alias(*)) 
.INC ".\cheby_cuad1-SCHEMATIC1.net" 



**** INCLUDING cheby_cuad1-SCHEMATIC1.net ****
* source CHEBY_CUAD1
V_V2         V+ 0 12Vdc
R_R3_1         N11356 N11372  {R3}  
V_V3         0 V- 12Vdc
X_U8         0 N11372 V+ V- VO1 AD817A/AD
C_C2         0 N11356  560n  
C_C5         N11372 VO1  1n  
R_R1_1         VI N11356  {R1}  
V_V1         VI 0 DC 0Vdc AC 1Vac 
R_R4         N11356 VO1  21k  
.PARAM  R1=21k R3=15k

**** RESUMING cheby_cuad1-schematic1-sim_cuad1_param.sim.cir ****
.END

**** 03/20/20 18:16:05 ******** PSpice 9.2.3 (Jan 2002) ******* ID# 1111111111 
 ** Profile: "SCHEMATIC1-sim_cuad1_param"  [ C:\Cadence\PSD_14.2\tools\cheby_cuad1-schematic1-sim_cuad1_param.sim ] 


 ****     Diode MODEL PARAMETERS


******************************************************************************




               X_U8.DX         
          IS   10.000000E-15 


**** 03/20/20 18:16:05 ******** PSpice 9.2.3 (Jan 2002) ******* ID# 1111111111 
 ** Profile: "SCHEMATIC1-sim_cuad1_param"  [ C:\Cadence\PSD_14.2\tools\cheby_cuad1-schematic1-sim_cuad1_param.sim ] 


 ****     BJT MODEL PARAMETERS


******************************************************************************




               X_U8.QN         
               NPN             
          IS  100.000000E-18 
          BF   75.758        
          NF    1            
          BR    1            
          NR    1            
          CN    2.42         
           D     .87         


**** 03/20/20 18:16:05 ******** PSpice 9.2.3 (Jan 2002) ******* ID# 1111111111 
 ** Profile: "SCHEMATIC1-sim_cuad1_param"  [ C:\Cadence\PSD_14.2\tools\cheby_cuad1-schematic1-sim_cuad1_param.sim ] 


 ****     SMALL SIGNAL BIAS SOLUTION       TEMPERATURE =   27.000 DEG C

 ****     CURRENT STEP                     PARAM R3 =    1.0000E+03


******************************************************************************



 NODE   VOLTAGE     NODE   VOLTAGE     NODE   VOLTAGE     NODE   VOLTAGE


(   V+)   12.0000  (   V-)  -12.0000  (   VI)    0.0000  (  VO1)     .1560      

(N11356)     .0086 (N11372)     .0020 (X_U8.3)     .0020 (X_U8.4)   11.4650     

(X_U8.5)   11.4650 (X_U8.6)    -.7540 (X_U8.7)    -.7539 (X_U8.8)   -1.2705     

(X_U8.9)     .1561 (X_U8.10)    9.5700                   (X_U8.11)   -9.5700    

(X_U8.14) 980.3E-06                   (X_U8.15) 980.3E-12                       

(X_U8.31)     .1561                   (X_U8.32) 156.1E+03                       

(X_U8.33)     .1561                   (X_U8.34) 156.1E+03                       

(X_U8.35)     .1561                   (X_U8.36)     .1561                       

(X_U8.40)     .1561                   (X_U8.41)     .1161                       

(X_U8.42)     .1961                   (X_U8.45)     .1560                       

(X_U8.60)    -.5089                   (X_U8.61)    0.0000                       

(X_U8.62)    0.0000                   (X_U8.98)    0.0000                   




    VOLTAGE SOURCE CURRENTS
    NAME         CURRENT

    V_V2        -7.449E-03
    V_V3        -7.455E-03
    V_V1         4.083E-07
    X_U8.V1      9.424E-12
    X_U8.V2      9.736E-12
    X_U8.V7     -5.189E-13
    X_U8.V8      3.511E-06
    X_U8.V5     -4.781E-14
    X_U8.V6     -4.793E-14

    TOTAL POWER DISSIPATION   1.79E-01  WATTS


**** 03/20/20 18:16:05 ******** PSpice 9.2.3 (Jan 2002) ******* ID# 1111111111 
 ** Profile: "SCHEMATIC1-sim_cuad1_param"  [ C:\Cadence\PSD_14.2\tools\cheby_cuad1-schematic1-sim_cuad1_param.sim ] 


 ****     SMALL SIGNAL BIAS SOLUTION       TEMPERATURE =   27.000 DEG C

 ****     CURRENT STEP                     PARAM R3 =    1.1000E+03


******************************************************************************



 NODE   VOLTAGE     NODE   VOLTAGE     NODE   VOLTAGE     NODE   VOLTAGE


(   V+)   12.0000  (   V-)  -12.0000  (   VI)    0.0000  (  VO1)     .1574      

(N11356)     .0092 (N11372)     .0020 (X_U8.3)     .0020 (X_U8.4)   11.4650     

(X_U8.5)   11.4650 (X_U8.6)    -.7540 (X_U8.7)    -.7539 (X_U8.8)   -1.2705     

(X_U8.9)     .1574 (X_U8.10)    9.5700                   (X_U8.11)   -9.5700    

(X_U8.14) 980.1E-06                   (X_U8.15) 980.1E-12                       

(X_U8.31)     .1574                   (X_U8.32) 157.4E+03                       

(X_U8.33)     .1574                   (X_U8.34) 157.4E+03                       

(X_U8.35)     .1574                   (X_U8.36)     .1574                       

(X_U8.40)     .1574                   (X_U8.41)     .1174                       

(X_U8.42)     .1974                   (X_U8.45)     .1574                       

(X_U8.60)    -.5090                   (X_U8.61)    0.0000                       

(X_U8.62)    0.0000                   (X_U8.98)    0.0000                   




    VOLTAGE SOURCE CURRENTS
    NAME         CURRENT

    V_V2        -7.449E-03
    V_V3        -7.455E-03
    V_V1         4.398E-07
    X_U8.V1      9.423E-12
    X_U8.V2      9.737E-12
    X_U8.V7     -5.190E-13
    X_U8.V8      3.527E-06
    X_U8.V5     -4.782E-14
    X_U8.V6     -4.793E-14

    TOTAL POWER DISSIPATION   1.79E-01  WATTS


**** 03/20/20 18:16:05 ******** PSpice 9.2.3 (Jan 2002) ******* ID# 1111111111 
 ** Profile: "SCHEMATIC1-sim_cuad1_param"  [ C:\Cadence\PSD_14.2\tools\cheby_cuad1-schematic1-sim_cuad1_param.sim ] 


 ****     SMALL SIGNAL BIAS SOLUTION       TEMPERATURE =   27.000 DEG C

 ****     CURRENT STEP                     PARAM R3 =    1.2000E+03


******************************************************************************



 NODE   VOLTAGE     NODE   VOLTAGE     NODE   VOLTAGE     NODE   VOLTAGE


(   V+)   12.0000  (   V-)  -12.0000  (   VI)    0.0000  (  VO1)     .1587      

(N11356)     .0099 (N11372)     .0020 (X_U8.3)     .0020 (X_U8.4)   11.4650     

(X_U8.5)   11.4650 (X_U8.6)    -.7540 (X_U8.7)    -.7539 (X_U8.8)   -1.2705     

(X_U8.9)     .1587 (X_U8.10)    9.5700                   (X_U8.11)   -9.5700    

(X_U8.14) 979.9E-06                   (X_U8.15) 979.9E-12                       

(X_U8.31)     .1587                   (X_U8.32) 158.7E+03                       

(X_U8.33)     .1587                   (X_U8.34) 158.7E+03                       

(X_U8.35)     .1587                   (X_U8.36)     .1587                       

(X_U8.40)     .1587                   (X_U8.41)     .1187                       

(X_U8.42)     .1987                   (X_U8.45)     .1587                       

(X_U8.60)    -.5092                   (X_U8.61)    0.0000                       

(X_U8.62)    0.0000                   (X_U8.98)    0.0000                   




    VOLTAGE SOURCE CURRENTS
    NAME         CURRENT

    V_V2        -7.449E-03
    V_V3        -7.455E-03
    V_V1         4.713E-07
    X_U8.V1      9.421E-12
    X_U8.V2      9.739E-12
    X_U8.V7     -5.192E-13
    X_U8.V8      3.542E-06
    X_U8.V5     -4.780E-14
    X_U8.V6     -4.793E-14

    TOTAL POWER DISSIPATION   1.79E-01  WATTS


**** 03/20/20 18:16:05 ******** PSpice 9.2.3 (Jan 2002) ******* ID# 1111111111 
 ** Profile: "SCHEMATIC1-sim_cuad1_param"  [ C:\Cadence\PSD_14.2\tools\cheby_cuad1-schematic1-sim_cuad1_param.sim ] 


 ****     SMALL SIGNAL BIAS SOLUTION       TEMPERATURE =   27.000 DEG C

 ****     CURRENT STEP                     PARAM R3 =    1.3000E+03


******************************************************************************



 NODE   VOLTAGE     NODE   VOLTAGE     NODE   VOLTAGE     NODE   VOLTAGE


(   V+)   12.0000  (   V-)  -12.0000  (   VI)    0.0000  (  VO1)     .1600      

(N11356)     .0106 (N11372)     .0020 (X_U8.3)     .0020 (X_U8.4)   11.4650     

(X_U8.5)   11.4650 (X_U8.6)    -.7540 (X_U8.7)    -.7539 (X_U8.8)   -1.2705     

(X_U8.9)     .1601 (X_U8.10)    9.5700                   (X_U8.11)   -9.5700    

(X_U8.14) 979.8E-06                   (X_U8.15) 979.8E-12                       

(X_U8.31)     .1601                   (X_U8.32) 160.1E+03                       

(X_U8.33)     .1601                   (X_U8.34) 160.1E+03                       

(X_U8.35)     .1601                   (X_U8.36)     .1601                       

(X_U8.40)     .1601                   (X_U8.41)     .1201                       

(X_U8.42)     .2001                   (X_U8.45)     .1600                       

(X_U8.60)    -.5093                   (X_U8.61)    0.0000                       

(X_U8.62)    0.0000                   (X_U8.98)    0.0000                   




    VOLTAGE SOURCE CURRENTS
    NAME         CURRENT

    V_V2        -7.449E-03
    V_V3        -7.455E-03
    V_V1         5.027E-07
    X_U8.V1      9.420E-12
    X_U8.V2      9.740E-12
    X_U8.V7     -5.193E-13
    X_U8.V8      3.558E-06
    X_U8.V5     -4.782E-14
    X_U8.V6     -4.793E-14

    TOTAL POWER DISSIPATION   1.79E-01  WATTS


**** 03/20/20 18:16:05 ******** PSpice 9.2.3 (Jan 2002) ******* ID# 1111111111 
 ** Profile: "SCHEMATIC1-sim_cuad1_param"  [ C:\Cadence\PSD_14.2\tools\cheby_cuad1-schematic1-sim_cuad1_param.sim ] 


 ****     SMALL SIGNAL BIAS SOLUTION       TEMPERATURE =   27.000 DEG C

 ****     CURRENT STEP                     PARAM R3 =    1.4000E+03


******************************************************************************



 NODE   VOLTAGE     NODE   VOLTAGE     NODE   VOLTAGE     NODE   VOLTAGE


(   V+)   12.0000  (   V-)  -12.0000  (   VI)    0.0000  (  VO1)     .1613      

(N11356)     .0112 (N11372)     .0020 (X_U8.3)     .0020 (X_U8.4)   11.4650     

(X_U8.5)   11.4650 (X_U8.6)    -.7540 (X_U8.7)    -.7539 (X_U8.8)   -1.2705     

(X_U8.9)     .1614 (X_U8.10)    9.5700                   (X_U8.11)   -9.5700    

(X_U8.14) 979.6E-06                   (X_U8.15) 979.6E-12                       

(X_U8.31)     .1614                   (X_U8.32) 161.4E+03                       

(X_U8.33)     .1614                   (X_U8.34) 161.4E+03                       

(X_U8.35)     .1614                   (X_U8.36)     .1614                       

(X_U8.40)     .1614                   (X_U8.41)     .1214                       

(X_U8.42)     .2014                   (X_U8.45)     .1613                       

(X_U8.60)    -.5094                   (X_U8.61)    0.0000                       

(X_U8.62)    0.0000                   (X_U8.98)    0.0000                   




    VOLTAGE SOURCE CURRENTS
    NAME         CURRENT

    V_V2        -7.449E-03
    V_V3        -7.455E-03
    V_V1         5.342E-07
    X_U8.V1      9.419E-12
    X_U8.V2      9.741E-12
    X_U8.V7     -5.194E-13
    X_U8.V8      3.574E-06
    X_U8.V5     -4.781E-14
    X_U8.V6     -4.793E-14

    TOTAL POWER DISSIPATION   1.79E-01  WATTS


**** 03/20/20 18:16:05 ******** PSpice 9.2.3 (Jan 2002) ******* ID# 1111111111 
 ** Profile: "SCHEMATIC1-sim_cuad1_param"  [ C:\Cadence\PSD_14.2\tools\cheby_cuad1-schematic1-sim_cuad1_param.sim ] 


 ****     SMALL SIGNAL BIAS SOLUTION       TEMPERATURE =   27.000 DEG C

 ****     CURRENT STEP                     PARAM R3 =    1.5000E+03


******************************************************************************



 NODE   VOLTAGE     NODE   VOLTAGE     NODE   VOLTAGE     NODE   VOLTAGE


(   V+)   12.0000  (   V-)  -12.0000  (   VI)    0.0000  (  VO1)     .1626      

(N11356)     .0119 (N11372)     .0020 (X_U8.3)     .0020 (X_U8.4)   11.4650     

(X_U8.5)   11.4650 (X_U8.6)    -.7540 (X_U8.7)    -.7539 (X_U8.8)   -1.2705     

(X_U8.9)     .1627 (X_U8.10)    9.5700                   (X_U8.11)   -9.5700    

(X_U8.14) 979.4E-06                   (X_U8.15) 979.4E-12                       

(X_U8.31)     .1627                   (X_U8.32) 162.7E+03                       

(X_U8.33)     .1627                   (X_U8.34) 162.7E+03                       

(X_U8.35)     .1627                   (X_U8.36)     .1627                       

(X_U8.40)     .1627                   (X_U8.41)     .1227                       

(X_U8.42)     .2027                   (X_U8.45)     .1626                       

(X_U8.60)    -.5095                   (X_U8.61)    0.0000                       

(X_U8.62)    0.0000                   (X_U8.98)    0.0000                   




    VOLTAGE SOURCE CURRENTS
    NAME         CURRENT

    V_V2        -7.449E-03
    V_V3        -7.455E-03
    V_V1         5.657E-07
    X_U8.V1      9.417E-12
    X_U8.V2      9.743E-12
    X_U8.V7     -5.195E-13
    X_U8.V8      3.590E-06
    X_U8.V5     -4.781E-14
    X_U8.V6     -4.793E-14

    TOTAL POWER DISSIPATION   1.79E-01  WATTS


**** 03/20/20 18:16:05 ******** PSpice 9.2.3 (Jan 2002) ******* ID# 1111111111 
 ** Profile: "SCHEMATIC1-sim_cuad1_param"  [ C:\Cadence\PSD_14.2\tools\cheby_cuad1-schematic1-sim_cuad1_param.sim ] 


 ****     SMALL SIGNAL BIAS SOLUTION       TEMPERATURE =   27.000 DEG C

 ****     CURRENT STEP                     PARAM R3 =    1.6000E+03


******************************************************************************



 NODE   VOLTAGE     NODE   VOLTAGE     NODE   VOLTAGE     NODE   VOLTAGE


(   V+)   12.0000  (   V-)  -12.0000  (   VI)    0.0000  (  VO1)     .1640      

(N11356)     .0125 (N11372)     .0020 (X_U8.3)     .0020 (X_U8.4)   11.4650     

(X_U8.5)   11.4650 (X_U8.6)    -.7540 (X_U8.7)    -.7539 (X_U8.8)   -1.2705     

(X_U8.9)     .1640 (X_U8.10)    9.5700                   (X_U8.11)   -9.5700    

(X_U8.14) 979.3E-06                   (X_U8.15) 979.3E-12                       

(X_U8.31)     .1640                   (X_U8.32) 164.0E+03                       

(X_U8.33)     .1640                   (X_U8.34) 164.0E+03                       

(X_U8.35)     .1640                   (X_U8.36)     .1640                       

(X_U8.40)     .1640                   (X_U8.41)     .1240                       

(X_U8.42)     .2040                   (X_U8.45)     .1640                       

(X_U8.60)    -.5096                   (X_U8.61)    0.0000                       

(X_U8.62)    0.0000                   (X_U8.98)    0.0000                   




    VOLTAGE SOURCE CURRENTS
    NAME         CURRENT

    V_V2        -7.449E-03
    V_V3        -7.455E-03
    V_V1         5.972E-07
    X_U8.V1      9.416E-12
    X_U8.V2      9.744E-12
    X_U8.V7     -5.196E-13
    X_U8.V8      3.605E-06
    X_U8.V5     -4.782E-14
    X_U8.V6     -4.793E-14

    TOTAL POWER DISSIPATION   1.79E-01  WATTS


**** 03/20/20 18:16:05 ******** PSpice 9.2.3 (Jan 2002) ******* ID# 1111111111 
 ** Profile: "SCHEMATIC1-sim_cuad1_param"  [ C:\Cadence\PSD_14.2\tools\cheby_cuad1-schematic1-sim_cuad1_param.sim ] 


 ****     SMALL SIGNAL BIAS SOLUTION       TEMPERATURE =   27.000 DEG C

 ****     CURRENT STEP                     PARAM R3 =    1.7000E+03


******************************************************************************



 NODE   VOLTAGE     NODE   VOLTAGE     NODE   VOLTAGE     NODE   VOLTAGE


(   V+)   12.0000  (   V-)  -12.0000  (   VI)    0.0000  (  VO1)     .1653      

(N11356)     .0132 (N11372)     .0020 (X_U8.3)     .0020 (X_U8.4)   11.4650     

(X_U8.5)   11.4650 (X_U8.6)    -.7540 (X_U8.7)    -.7539 (X_U8.8)   -1.2705     

(X_U8.9)     .1654 (X_U8.10)    9.5700                   (X_U8.11)   -9.5700    

(X_U8.14) 979.1E-06                   (X_U8.15) 979.1E-12                       

(X_U8.31)     .1654                   (X_U8.32) 165.4E+03                       

(X_U8.33)     .1654                   (X_U8.34) 165.4E+03                       

(X_U8.35)     .1653                   (X_U8.36)     .1653                       

(X_U8.40)     .1653                   (X_U8.41)     .1253                       

(X_U8.42)     .2053                   (X_U8.45)     .1653                       

(X_U8.60)    -.5097                   (X_U8.61)    0.0000                       

(X_U8.62)    0.0000                   (X_U8.98)    0.0000                   




    VOLTAGE SOURCE CURRENTS
    NAME         CURRENT

    V_V2        -7.449E-03
    V_V3        -7.455E-03
    V_V1         6.286E-07
    X_U8.V1      9.415E-12
    X_U8.V2      9.745E-12
    X_U8.V7     -5.197E-13
    X_U8.V8      3.621E-06
    X_U8.V5     -4.781E-14
    X_U8.V6     -4.793E-14

    TOTAL POWER DISSIPATION   1.79E-01  WATTS


**** 03/20/20 18:16:05 ******** PSpice 9.2.3 (Jan 2002) ******* ID# 1111111111 
 ** Profile: "SCHEMATIC1-sim_cuad1_param"  [ C:\Cadence\PSD_14.2\tools\cheby_cuad1-schematic1-sim_cuad1_param.sim ] 


 ****     SMALL SIGNAL BIAS SOLUTION       TEMPERATURE =   27.000 DEG C

 ****     CURRENT STEP                     PARAM R3 =    1.8000E+03


******************************************************************************



 NODE   VOLTAGE     NODE   VOLTAGE     NODE   VOLTAGE     NODE   VOLTAGE


(   V+)   12.0000  (   V-)  -12.0000  (   VI)    0.0000  (  VO1)     .1666      

(N11356)     .0139 (N11372)     .0020 (X_U8.3)     .0020 (X_U8.4)   11.4650     

(X_U8.5)   11.4650 (X_U8.6)    -.7540 (X_U8.7)    -.7539 (X_U8.8)   -1.2705     

(X_U8.9)     .1667 (X_U8.10)    9.5700                   (X_U8.11)   -9.5700    

(X_U8.14) 978.9E-06                   (X_U8.15) 978.9E-12                       

(X_U8.31)     .1667                   (X_U8.32) 166.7E+03                       

(X_U8.33)     .1667                   (X_U8.34) 166.7E+03                       

(X_U8.35)     .1667                   (X_U8.36)     .1667                       

(X_U8.40)     .1667                   (X_U8.41)     .1267                       

(X_U8.42)     .2067                   (X_U8.45)     .1666                       

(X_U8.60)    -.5098                   (X_U8.61)    0.0000                       

(X_U8.62)    0.0000                   (X_U8.98)    0.0000                   




    VOLTAGE SOURCE CURRENTS
    NAME         CURRENT

    V_V2        -7.449E-03
    V_V3        -7.455E-03
    V_V1         6.601E-07
    X_U8.V1      9.413E-12
    X_U8.V2      9.747E-12
    X_U8.V7     -5.198E-13
    X_U8.V8      3.637E-06
    X_U8.V5     -4.780E-14
    X_U8.V6     -4.793E-14

    TOTAL POWER DISSIPATION   1.79E-01  WATTS


**** 03/20/20 18:16:05 ******** PSpice 9.2.3 (Jan 2002) ******* ID# 1111111111 
 ** Profile: "SCHEMATIC1-sim_cuad1_param"  [ C:\Cadence\PSD_14.2\tools\cheby_cuad1-schematic1-sim_cuad1_param.sim ] 


 ****     SMALL SIGNAL BIAS SOLUTION       TEMPERATURE =   27.000 DEG C

 ****     CURRENT STEP                     PARAM R3 =    1.9000E+03


******************************************************************************



 NODE   VOLTAGE     NODE   VOLTAGE     NODE   VOLTAGE     NODE   VOLTAGE


(   V+)   12.0000  (   V-)  -12.0000  (   VI)    0.0000  (  VO1)     .1679      

(N11356)     .0145 (N11372)     .0020 (X_U8.3)     .0020 (X_U8.4)   11.4650     

(X_U8.5)   11.4650 (X_U8.6)    -.7540 (X_U8.7)    -.7539 (X_U8.8)   -1.2705     

(X_U8.9)     .1680 (X_U8.10)    9.5700                   (X_U8.11)   -9.5700    

(X_U8.14) 978.8E-06                   (X_U8.15) 978.8E-12                       

(X_U8.31)     .1680                   (X_U8.32) 168.0E+03                       

(X_U8.33)     .1680                   (X_U8.34) 168.0E+03                       

(X_U8.35)     .1680                   (X_U8.36)     .1680                       

(X_U8.40)     .1680                   (X_U8.41)     .1280                       

